Title: * E:\Temp\raw\ascii\tf\tf_stepped.asc
Date: Fri Aug 02 17:57:14 2013
Plotname: Transfer Function
Flags: real stepped
No. Variables: 4
No. Points:           16
Offset:   0.0000000000000000e+000
Command: Linear Technology Corporation LTspice IV
Variables:
	0	iq	param
	1	Transfer_function	transfer
	2	v3#Input_impedance	impedance
	3	output_impedance_at_V(uc2)	impedance
Values:
0		5.000000000000000e-003
	-1.480442098002213e-002
	3.976221428594708e+006
	1.461770235658865e+003
1		6.000000000000000e-003
	-1.477224012809226e-002
	3.394380091084824e+006
	1.454537291348770e+003
2		7.000000000000000e-003
	-1.473819515014059e-002
	2.940210071929560e+006
	1.447303456694852e+003
3		8.000000000000000e-003
	-1.470219378512327e-002
	2.576188429048681e+006
	1.440067521965995e+003
4		9.000000000000001e-003
	-1.466414533629016e-002
	2.278325612075010e+006
	1.432832602862474e+003
5		1.000000000000000e-002
	-1.462391968917418e-002
	2.030286442857830e+006
	1.425596200940291e+003
6		1.100000000000000e-002
	-1.458138784623710e-002
	1.820774785832220e+006
	1.418358569765064e+003
7		1.200000000000000e-002
	-1.453640912308171e-002
	1.641666247025592e+006
	1.411119757896056e+003
8		1.300000000000001e-002
	-1.448883158591291e-002
	1.486970070794712e+006
	1.403879733054039e+003
9		1.400000000000001e-002
	-1.443849181475444e-002
	1.352172277658789e+006
	1.396638428466154e+003
10		1.500000000000001e-002
	-1.438521431228774e-002
	1.233806953266748e+006
	1.389395759814401e+003
11		1.600000000000001e-002
	-1.432881069897835e-002
	1.129168570728350e+006
	1.382151631152640e+003
12		1.700000000000001e-002
	-1.426907875043088e-002
	1.036114120545605e+006
	1.374905936675246e+003
13		1.800000000000001e-002
	-1.420578993892285e-002
	9.529102300989772e+005
	1.367657089461972e+003
14		1.900000000000001e-002
	-1.413873920666838e-002
	8.781961977030051e+005
	1.360408664514105e+003
15		2.000000000000000e-002
	-1.406730815619570e-002
	8.104960633896948e+005
	1.353157359459807e+003
