Title: * E:\Eigene Dateien\Visual Studio Projects\git\ltspice2matlab\testdata\XVII\text\tf\tf_stepped.asc
Date: Thu Feb 21 17:03:08 2019
Plotname: Transfer Function
Flags: real stepped
No. Variables: 4
No. Points:           16
Offset:   0.0000000000000000e+000
Command: Linear Technology Corporation LTspice XVII -- Alternate Solver
Variables:
	0	iq	param
	1	Transfer_function	transfer
	2	v3#Input_impedance	impedance
	3	output_impedance_at_V(uc2)	impedance
Values:
0		5.000000000000000e-003
	-1.480442098000983e-002
	3.976221428595076e+006
	1.461770235658699e+003
1		6.000000000000000e-003
	-1.477224012806854e-002
	3.394380091084714e+006
	1.454537291349008e+003
2		7.000000000000000e-003
	-1.473819515017956e-002
	2.940210071928463e+006
	1.447303456694601e+003
3		8.000000000000000e-003
	-1.470219378519119e-002
	2.576188429046704e+006
	1.440067521966009e+003
4		8.999999999999999e-003
	-1.466414533631760e-002
	2.278325612073956e+006
	1.432832602862530e+003
5		1.000000000000000e-002
	-1.462391968922287e-002
	2.030286442856883e+006
	1.425596200940575e+003
6		1.100000000000000e-002
	-1.458138784629994e-002
	1.820774785830648e+006
	1.418358569765017e+003
7		1.200000000000000e-002
	-1.453640912309175e-002
	1.641666247025365e+006
	1.411119757895743e+003
8		1.300000000000000e-002
	-1.448883158594359e-002
	1.486970070794767e+006
	1.403879733054158e+003
9		1.400000000000000e-002
	-1.443849181469284e-002
	1.352172277658983e+006
	1.396638428465896e+003
10		1.500000000000000e-002
	-1.438521431227754e-002
	1.233806953266951e+006
	1.389395759814597e+003
11		1.600000000000000e-002
	-1.432881069906736e-002
	1.129168570727928e+006
	1.382151631152842e+003
12		1.700000000000000e-002
	-1.426907875033266e-002
	1.036114120545886e+006
	1.374905936675176e+003
13		1.800000000000000e-002
	-1.420578993885037e-002
	9.529102300997644e+005
	1.367657089462295e+003
14		1.900000000000000e-002
	-1.413873920652667e-002
	8.781961977032574e+005
	1.360408664513933e+003
15		2.000000000000000e-002
	-1.406730815624848e-002
	8.104960633895734e+005
	1.353157359459695e+003
