Title: * E:\Eigene Dateien\Visual Studio Projects\git\ltspice2matlab\testdata\XVII\text\dc\dc.asc
Date: Thu Feb 21 17:01:56 2019
Plotname: DC transfer characteristic
Flags: real forward
No. Variables: 23
No. Points:           11
Offset:   0.0000000000000000e+000
Command: Linear Technology Corporation LTspice XVII -- Alternate Solver
Variables:
	0	i1	current
	1	V(uc1)	voltage
	2	V(ue1)	voltage
	3	V(ue12)	voltage
	4	V(uc2)	voltage
	5	V(ue2)	voltage
	6	V(vee)	voltage
	7	V(vcc)	voltage
	8	V(ued)	voltage
	9	Ic(Q2)	device_current
	10	Ib(Q2)	device_current
	11	Ie(Q2)	device_current
	12	Ic(Q1)	device_current
	13	Ib(Q1)	device_current
	14	Ie(Q1)	device_current
	15	I(I1)	device_current
	16	I(R2)	device_current
	17	I(R1)	device_current
	18	I(E2)	device_current
	19	I(E1)	device_current
	20	I(V1)	device_current
	21	I(Ve)	device_current
	22	I(Vc)	device_current
Values:
0		5.000000000000000e-003
	1.126065760855964e+001
	0.000000000000000e+000
	-6.841541034902617e-001
	1.126065760855964e+001
	0.000000000000000e+000
	-1.500000000000000e+001
	1.500000000000000e+001
	0.000000000000000e+000
	2.492894927628787e-003
	7.105072371215209e-006
	-2.500000000000000e-003
	2.492894927628786e-003
	7.105072371215205e-006
	-2.500000000000000e-003
	5.000000000000000e-003
	2.492894927626908e-003
	2.492894927626909e-003
	-7.105072373091578e-006
	-7.105072373091582e-006
	0.000000000000000e+000
	-5.000000000000000e-003
	-4.985789855257571e-003
1		6.000000000000000e-003
	1.051281695088322e+001
	0.000000000000000e+000
	-6.892674964824254e-001
	1.051281695088322e+001
	0.000000000000000e+000
	-1.500000000000000e+001
	1.500000000000000e+001
	0.000000000000000e+000
	2.991455351494104e-003
	8.544648505896648e-006
	-3.000000000000000e-003
	2.991455351494105e-003
	8.544648505896641e-006
	-3.000000000000000e-003
	6.000000000000000e-003
	2.991455366077855e-003
	2.991455366077856e-003
	-8.544633922144514e-006
	-8.544633922144507e-006
	0.000000000000000e+000
	-6.000000000000000e-003
	-5.982910702988207e-003
2		7.000000000000000e-003
	9.765024901920377e+000
	0.000000000000000e+000
	-6.936587064169737e-001
	9.765024901920377e+000
	0.000000000000000e+000
	-1.500000000000000e+001
	1.500000000000000e+001
	0.000000000000000e+000
	3.489983310321518e-003
	1.001668967848290e-005
	-3.500000000000000e-003
	3.489983310321518e-003
	1.001668967848290e-005
	-3.500000000000000e-003
	7.000000000000000e-003
	3.489983398719749e-003
	3.489983398719749e-003
	-1.001660128025158e-005
	-1.001660128025159e-005
	0.000000000000000e+000
	-7.000000000000000e-003
	-6.979966620643035e-003
3		8.000000000000000e-003
	9.017286630607455e+000
	0.000000000000000e+000
	-6.975109482078672e-001
	9.017286630607455e+000
	0.000000000000000e+000
	-1.500000000000000e+001
	1.500000000000000e+001
	0.000000000000000e+000
	3.988475498441704e-003
	1.152450155829693e-005
	-4.000000000000000e-003
	3.988475498441703e-003
	1.152450155829692e-005
	-4.000000000000000e-003
	8.000000000000000e-003
	3.988475579595031e-003
	3.988475579595030e-003
	-1.152442040497008e-005
	-1.152442040497007e-005
	0.000000000000000e+000
	-8.000000000000000e-003
	-7.976950996883406e-003
4		8.999999999999999e-003
	8.269606373426630e+000
	0.000000000000000e+000
	-7.009624367772765e-001
	8.269606373426630e+000
	0.000000000000000e+000
	-1.500000000000000e+001
	1.500000000000000e+001
	0.000000000000000e+000
	4.486929018694651e-003
	1.307098130534933e-005
	-4.500000000000000e-003
	4.486929018694651e-003
	1.307098130534933e-005
	-4.500000000000000e-003
	8.999999999999999e-003
	4.486929084382247e-003
	4.486929084382247e-003
	-1.307091561775349e-005
	-1.307091561775349e-005
	0.000000000000000e+000
	-8.999999999999999e-003
	-8.973858037389301e-003
5		1.000000000000000e-002
	7.521988126572064e+000
	0.000000000000000e+000
	-7.040986629765733e-001
	7.521988126572064e+000
	0.000000000000000e+000
	-1.500000000000000e+001
	1.500000000000000e+001
	0.000000000000000e+000
	4.985341193296610e-003
	1.465880670339046e-005
	-5.000000000000000e-003
	4.985341193296610e-003
	1.465880670339046e-005
	-5.000000000000000e-003
	1.000000000000000e-002
	4.985341248951957e-003
	4.985341248951957e-003
	-1.465875104804334e-005
	-1.465875104804334e-005
	0.000000000000000e+000
	-1.000000000000000e-002
	-9.970682386593219e-003
6		1.100000000000000e-002
	6.774435747190535e+000
	0.000000000000000e+000
	-7.069803175673339e-001
	6.774435747190535e+000
	0.000000000000000e+000
	-1.500000000000000e+001
	1.500000000000000e+001
	0.000000000000000e+000
	5.483709454406342e-003
	1.629054559365826e-005
	-5.500000000000000e-003
	5.483709454406342e-003
	1.629054559365826e-005
	-5.500000000000000e-003
	1.100000000000000e-002
	5.483709501872977e-003
	5.483709501872977e-003
	-1.629049812702318e-005
	-1.629049812702318e-005
	0.000000000000000e+000
	-1.100000000000000e-002
	-1.096741890881268e-002
7		1.200000000000000e-002
	6.026953025991368e+000
	0.000000000000000e+000
	-7.096525800492241e-001
	6.026953025991368e+000
	0.000000000000000e+000
	-1.500000000000000e+001
	1.500000000000000e+001
	0.000000000000000e+000
	5.982031275363026e-003
	1.796872463697355e-005
	-6.000000000000000e-003
	5.982031275363026e-003
	1.796872463697353e-005
	-6.000000000000000e-003
	1.200000000000000e-002
	5.982031316005754e-003
	5.982031316005754e-003
	-1.796868399424534e-005
	-1.796868399424535e-005
	0.000000000000000e+000
	-1.200000000000000e-002
	-1.196406255072605e-002
8		1.300000000000000e-002
	5.279543761057831e+000
	0.000000000000000e+000
	-7.121498645865062e-001
	5.279543761057831e+000
	0.000000000000000e+000
	-1.500000000000000e+001
	1.500000000000000e+001
	0.000000000000000e+000
	6.480304124261747e-003
	1.969587573825333e-005
	-6.500000000000000e-003
	6.480304124261746e-003
	1.969587573825335e-005
	-6.500000000000000e-003
	1.300000000000000e-002
	6.480304159294779e-003
	6.480304159294779e-003
	-1.969584070522098e-005
	-1.969584070522098e-005
	0.000000000000000e+000
	-1.300000000000000e-002
	-1.296060824852349e-002
9		1.400000000000000e-002
	4.532211808704612e+000
	0.000000000000000e+000
	-7.144989769371998e-001
	4.532211808704612e+000
	0.000000000000000e+000
	-1.500000000000000e+001
	1.500000000000000e+001
	0.000000000000000e+000
	6.978525430457240e-003
	2.147456954276025e-005
	-7.000000000000000e-003
	6.978525430457240e-003
	2.147456954276024e-005
	-7.000000000000000e-003
	1.400000000000000e-002
	6.978525460863591e-003
	6.978525460863591e-003
	-2.147453913640829e-005
	-2.147453913640827e-005
	0.000000000000000e+000
	-1.400000000000000e-002
	-1.395705086091448e-002
10		1.500000000000000e-002
	3.784961121917113e+000
	0.000000000000000e+000
	-7.167212086914411e-001
	3.784961121917113e+000
	0.000000000000000e+000
	-1.500000000000000e+001
	1.500000000000000e+001
	0.000000000000000e+000
	7.476692558827451e-003
	2.330744117254870e-005
	-7.500000000000000e-003
	7.476692558827451e-003
	2.330744117254870e-005
	-7.500000000000000e-003
	1.500000000000000e-002
	7.476692585388591e-003
	7.476692585388591e-003
	-2.330741461140884e-005
	-2.330741461140885e-005
	0.000000000000000e+000
	-1.500000000000000e-002
	-1.495338511765490e-002
