Title: * E:\Eigene Dateien\Visual Studio Projects\git\ltspice2matlab\testdata\XVII\text\op\op_stepped.asc
Date: Thu Feb 21 17:02:41 2019
Plotname: Operating Point
Flags: real stepped
No. Variables: 23
No. Points:           11
Offset:   0.0000000000000000e+000
Command: Linear Technology Corporation LTspice XVII -- Alternate Solver
Variables:
	0	iq	param
	1	V(uc1)	voltage
	2	V(ue1)	voltage
	3	V(ue12)	voltage
	4	V(uc2)	voltage
	5	V(ue2)	voltage
	6	V(vee)	voltage
	7	V(vcc)	voltage
	8	V(ued)	voltage
	9	Ic(Q2)	device_current
	10	Ib(Q2)	device_current
	11	Ie(Q2)	device_current
	12	Ic(Q1)	device_current
	13	Ib(Q1)	device_current
	14	Ie(Q1)	device_current
	15	I(I1)	device_current
	16	I(R2)	device_current
	17	I(R1)	device_current
	18	I(E2)	device_current
	19	I(E1)	device_current
	20	I(V1)	device_current
	21	I(Ve)	device_current
	22	I(Vc)	device_current
Values:
0		5.000000000000000e-003
	1.126065760855964e+001
	0.000000000000000e+000
	-6.841541034902617e-001
	1.126065760855964e+001
	0.000000000000000e+000
	-1.500000000000000e+001
	1.500000000000000e+001
	0.000000000000000e+000
	2.492894927626909e-003
	7.105075210843318e-006
	-2.500001046852202e-003
	2.492894927626909e-003
	7.105075210843314e-006
	-2.500001046852202e-003
	5.000000000000000e-003
	2.492894927626908e-003
	2.492894927626909e-003
	-7.105072373091578e-006
	-7.105072373091582e-006
	0.000000000000000e+000
	-5.000000000000000e-003
	-4.985789855253817e-003
1		6.000000000000000e-003
	1.051281697275436e+001
	0.000000000000000e+000
	-6.892637346497110e-001
	1.051281697275436e+001
	0.000000000000000e+000
	-1.500000000000000e+001
	1.500000000000000e+001
	0.000000000000000e+000
	2.991455351497094e-003
	8.544648844489498e-006
	-3.000000123105532e-003
	2.991455351497094e-003
	8.544648844489498e-006
	-3.000000123105532e-003
	6.000000000000000e-003
	2.991455351497093e-003
	2.991455351497093e-003
	-8.544648502907101e-006
	-8.544648502907101e-006
	0.000000000000000e+000
	-6.000000000000000e-003
	-5.982910702994186e-003
2		7.000000000000000e-003
	9.765025034537654e+000
	0.000000000000000e+000
	-6.936491038915741e-001
	9.765025034537654e+000
	0.000000000000000e+000
	-1.500000000000000e+001
	1.500000000000000e+001
	0.000000000000000e+000
	3.489983310308230e-003
	1.001668973328399e-005
	-3.500000014597440e-003
	3.489983310308230e-003
	1.001668973328399e-005
	-3.500000014597440e-003
	7.000000000000000e-003
	3.489983310308230e-003
	3.489983310308230e-003
	-1.001668969177019e-005
	-1.001668969177019e-005
	0.000000000000000e+000
	-7.000000000000000e-003
	-6.979966620616461e-003
3		8.000000000000000e-003
	9.017286734348966e+000
	0.000000000000000e+000
	-6.975064755985529e-001
	9.017286734348966e+000
	0.000000000000000e+000
	-1.500000000000000e+001
	1.500000000000000e+001
	0.000000000000000e+000
	3.988475510434023e-003
	1.152483866365086e-005
	-4.000119577536805e-003
	3.988475510434023e-003
	1.152483866365086e-005
	-4.000119577536805e-003
	8.000000000000000e-003
	3.988475510434023e-003
	3.988475510434022e-003
	-1.152448956597723e-005
	-1.152448956597723e-005
	0.000000000000000e+000
	-8.000000000000000e-003
	-7.976951020868045e-003
4		8.999999999999999e-003
	8.269606463264763e+000
	0.000000000000000e+000
	-7.009598160640096e-001
	8.269606463264765e+000
	0.000000000000000e+000
	-1.500000000000000e+001
	1.500000000000000e+001
	0.000000000000000e+000
	4.486929024490158e-003
	1.307110542474550e-005
	-4.500043352269017e-003
	4.486929024490158e-003
	1.307110542474550e-005
	-4.500043352269017e-003
	8.999999999999999e-003
	4.486929024490157e-003
	4.486929024490157e-003
	-1.307097550984243e-005
	-1.307097550984244e-005
	0.000000000000000e+000
	-8.999999999999999e-003
	-8.973858048980314e-003
5		1.000000000000000e-002
	7.521988206167837e+000
	0.000000000000000e+000
	-7.040969836371462e-001
	7.521988206167837e+000
	0.000000000000000e+000
	-1.500000000000000e+001
	1.500000000000000e+001
	0.000000000000000e+000
	4.985341195888109e-003
	1.465885159483894e-005
	-5.000015425759304e-003
	4.985341195888109e-003
	1.465885159483894e-005
	-5.000015425759304e-003
	1.000000000000000e-002
	4.985341195888109e-003
	4.985341195888109e-003
	-1.465880411189173e-005
	-1.465880411189175e-005
	0.000000000000000e+000
	-1.000000000000000e-002
	-9.970682391776217e-003
6		1.100000000000000e-002
	6.774435816753155e+000
	0.000000000000000e+000
	-7.069792066384381e-001
	6.774435816753156e+000
	0.000000000000000e+000
	-1.500000000000000e+001
	1.500000000000000e+001
	0.000000000000000e+000
	5.483709455497896e-003
	1.629056148217123e-005
	-5.500005367332996e-003
	5.483709455497896e-003
	1.629056148217124e-005
	-5.500005367332996e-003
	1.100000000000000e-002
	5.483709455497896e-003
	5.483709455497896e-003
	-1.629054450210364e-005
	-1.629054450210363e-005
	0.000000000000000e+000
	-1.100000000000000e-002
	-1.096741891099579e-002
7		1.200000000000000e-002
	6.026953086300980e+000
	0.000000000000000e+000
	-7.096518265143932e-001
	6.026953086300980e+000
	0.000000000000000e+000
	-1.500000000000000e+001
	1.500000000000000e+001
	0.000000000000000e+000
	5.982031275799346e-003
	1.796873011718383e-005
	-6.000001818802028e-003
	5.982031275799346e-003
	1.796873011718383e-005
	-6.000001818802027e-003
	1.200000000000000e-002
	5.982031275799346e-003
	5.982031275799347e-003
	-1.796872420065375e-005
	-1.796872420065375e-005
	0.000000000000000e+000
	-1.200000000000000e-002
	-1.196406255159869e-002
8		1.300000000000000e-002
	5.279543813358559e+000
	0.000000000000000e+000
	-7.121493403371088e-001
	5.279543813358560e+000
	0.000000000000000e+000
	-1.500000000000000e+001
	1.500000000000000e+001
	0.000000000000000e+000
	6.480304124427627e-003
	1.969587757184778e-005
	-6.500000597513473e-003
	6.480304124427627e-003
	1.969587757184778e-005
	-6.500000597513473e-003
	1.300000000000000e-002
	6.480304124427627e-003
	6.480304124427627e-003
	-1.969587557237300e-005
	-1.969587557237300e-005
	0.000000000000000e+000
	-1.300000000000000e-002
	-1.296060824885525e-002
9		1.400000000000000e-002
	4.532211854224263e+000
	0.000000000000000e+000
	-7.144986035712916e-001
	4.532211854224262e+000
	0.000000000000000e+000
	-1.500000000000000e+001
	1.500000000000000e+001
	0.000000000000000e+000
	6.978525430517158e-003
	2.147457013477174e-005
	-7.000000189312156e-003
	6.978525430517158e-003
	2.147457013477174e-005
	-7.000000189312156e-003
	1.400000000000000e-002
	6.978525430517158e-003
	6.978525430517158e-003
	-2.147456948284210e-005
	-2.147456948284211e-005
	0.000000000000000e+000
	-1.400000000000000e-002
	-1.395705086103432e-002
10		1.500000000000000e-002
	3.784961161728094e+000
	0.000000000000000e+000
	-7.167209371762987e-001
	3.784961161728094e+000
	0.000000000000000e+000
	-1.500000000000000e+001
	1.500000000000000e+001
	0.000000000000000e+000
	7.476692558847938e-003
	2.330744135588785e-005
	-7.500000057494710e-003
	7.476692558847938e-003
	2.330744135588785e-005
	-7.500000057494710e-003
	1.500000000000000e-002
	7.476692558847938e-003
	7.476692558847938e-003
	-2.330744115206260e-005
	-2.330744115206260e-005
	0.000000000000000e+000
	-1.500000000000000e-002
	-1.495338511769588e-002
