Title: * E:\Temp\raw\ascii\op\op_stepped.asc
Date: Fri Aug 02 17:56:54 2013
Plotname: Operating Point
Flags: real stepped
No. Variables: 23
No. Points:           11
Offset:   0.0000000000000000e+000
Command: Linear Technology Corporation LTspice IV
Variables:
	0	iq	param
	1	V(uc1)	voltage
	2	V(ue1)	voltage
	3	V(ue12)	voltage
	4	V(uc2)	voltage
	5	V(ue2)	voltage
	6	V(vee)	voltage
	7	V(vcc)	voltage
	8	V(ued)	voltage
	9	Ic(Q2)	device_current
	10	Ib(Q2)	device_current
	11	Ie(Q2)	device_current
	12	Ic(Q1)	device_current
	13	Ib(Q1)	device_current
	14	Ie(Q1)	device_current
	15	I(I1)	device_current
	16	I(R2)	device_current
	17	I(R1)	device_current
	18	I(E2)	device_current
	19	I(E1)	device_current
	20	I(V1)	device_current
	21	I(Ve)	device_current
	22	I(Vc)	device_current
Values:
0		5.000000000000000e-003
	1.126065760855976e+001
	0.000000000000000e+000
	-6.841541034902620e-001
	1.126065760855882e+001
	0.000000000000000e+000
	-1.500000000000000e+001
	1.500000000000000e+001
	0.000000000000000e+000
	2.492894927628766e-003
	7.105075210837909e-006
	-2.500001046852188e-003
	2.492894927626944e-003
	7.105075210844848e-006
	-2.500001046852227e-003
	5.000000000000000e-003
	2.492894927627453e-003
	2.492894927626824e-003
	-7.105072373087475e-006
	-7.105072373080545e-006
	0.000000000000000e+000
	-5.000000000000000e-003
	-4.985789855254276e-003
1		6.000000000000000e-003
	1.051281697275456e+001
	0.000000000000000e+000
	-6.892637346497113e-001
	1.051281697275350e+001
	0.000000000000000e+000
	-1.500000000000000e+001
	1.500000000000000e+001
	0.000000000000000e+000
	2.991455351498357e-003
	8.544648844481963e-006
	-3.000000123105522e-003
	2.991455351496535e-003
	8.544648844481963e-006
	-3.000000123105565e-003
	6.000000000000000e-003
	2.991455351497665e-003
	2.991455351496960e-003
	-8.544648502910845e-006
	-8.544648502896977e-006
	0.000000000000000e+000
	-6.000000000000000e-003
	-5.982910702994626e-003
2		7.000000000000000e-003
	9.765025034537954e+000
	0.000000000000000e+000
	-6.936491038915743e-001
	9.765025034536718e+000
	0.000000000000000e+000
	-1.500000000000000e+001
	1.500000000000000e+001
	0.000000000000000e+000
	3.489983310309868e-003
	1.001668973329747e-005
	-3.500000014597439e-003
	3.489983310308046e-003
	1.001668973329747e-005
	-3.500000014597499e-003
	7.000000000000000e-003
	3.489983310308855e-003
	3.489983310308031e-003
	-1.001668969178900e-005
	-1.001668969177513e-005
	0.000000000000000e+000
	-7.000000000000000e-003
	-6.979966620616885e-003
3		8.000000000000000e-003
	9.017286734350043e+000
	0.000000000000000e+000
	-6.975064755985526e-001
	9.017286734349511e+000
	0.000000000000000e+000
	-1.500000000000000e+001
	1.500000000000000e+001
	0.000000000000000e+000
	3.988475510433096e-003
	1.152483866366393e-005
	-4.000119577536782e-003
	3.988475510433096e-003
	1.152483866367781e-005
	-4.000119577536826e-003
	8.000000000000000e-003
	3.988475510433659e-003
	3.988475510433305e-003
	-1.152448956597806e-005
	-1.152448956597804e-005
	0.000000000000000e+000
	-8.000000000000000e-003
	-7.976951020866964e-003
4		9.000000000000001e-003
	8.269606463265586e+000
	0.000000000000000e+000
	-7.009598160640091e-001
	8.269606463265278e+000
	0.000000000000000e+000
	-1.500000000000000e+001
	1.500000000000000e+001
	0.000000000000000e+000
	4.486929024489560e-003
	1.307110542474552e-005
	-4.500043352269010e-003
	4.486929024489560e-003
	1.307110542474552e-005
	-4.500043352269029e-003
	9.000000000000001e-003
	4.486929024489814e-003
	4.486929024489610e-003
	-1.307097550983580e-005
	-1.307097550983579e-005
	0.000000000000000e+000
	-9.000000000000001e-003
	-8.973858048979426e-003
5		1.000000000000000e-002
	7.521988206167306e+000
	0.000000000000000e+000
	-7.040969836371461e-001
	7.521988206168095e+000
	0.000000000000000e+000
	-1.500000000000000e+001
	1.500000000000000e+001
	0.000000000000000e+000
	4.985341195889038e-003
	1.465885159484779e-005
	-5.000015425759318e-003
	4.985341195889949e-003
	1.465885159484779e-005
	-5.000015425759263e-003
	1.000000000000000e-002
	4.985341195887936e-003
	4.985341195888463e-003
	-1.465880411186768e-005
	-1.465880411189542e-005
	0.000000000000000e+000
	-1.000000000000000e-002
	-9.970682391776401e-003
6		1.100000000000000e-002
	6.774435816753209e+000
	0.000000000000000e+000
	-7.069792066384385e-001
	6.774435816752512e+000
	0.000000000000000e+000
	-1.500000000000000e+001
	1.500000000000000e+001
	0.000000000000000e+000
	5.483709455499590e-003
	1.629056148217022e-005
	-5.500005367333056e-003
	5.483709455498679e-003
	1.629056148217022e-005
	-5.500005367333111e-003
	1.100000000000000e-002
	5.483709455498326e-003
	5.483709455497862e-003
	-1.629054450208854e-005
	-1.629054450208857e-005
	0.000000000000000e+000
	-1.100000000000000e-002
	-1.096741891099619e-002
7		1.200000000000000e-002
	6.026953086301266e+000
	0.000000000000000e+000
	-7.096518265143931e-001
	6.026953086301073e+000
	0.000000000000000e+000
	-1.500000000000000e+001
	1.500000000000000e+001
	0.000000000000000e+000
	5.982031275799805e-003
	1.796873011716697e-005
	-6.000001818802042e-003
	5.982031275799805e-003
	1.796873011719472e-005
	-6.000001818802032e-003
	1.200000000000000e-002
	5.982031275799284e-003
	5.982031275799157e-003
	-1.796872420068704e-005
	-1.796872420068704e-005
	0.000000000000000e+000
	-1.200000000000000e-002
	-1.196406255159844e-002
8		1.300000000000001e-002
	5.279543813358292e+000
	0.000000000000000e+000
	-7.121493403371090e-001
	5.279543813358067e+000
	0.000000000000000e+000
	-1.500000000000000e+001
	1.500000000000000e+001
	0.000000000000000e+000
	6.480304124428710e-003
	1.969587757183242e-005
	-6.500000597513480e-003
	6.480304124428710e-003
	1.969587757186018e-005
	-6.500000597513501e-003
	1.300000000000000e-002
	6.480304124427955e-003
	6.480304124427806e-003
	-1.969587557235295e-005
	-1.969587557238068e-005
	0.000000000000000e+000
	-1.300000000000000e-002
	-1.296060824885576e-002
9		1.400000000000001e-002
	4.532211854224489e+000
	0.000000000000000e+000
	-7.144986035712913e-001
	4.532211854224831e+000
	0.000000000000000e+000
	-1.500000000000000e+001
	1.500000000000000e+001
	0.000000000000000e+000
	6.978525430517558e-003
	2.147457013475360e-005
	-7.000000189312117e-003
	6.978525430517558e-003
	2.147457013475360e-005
	-7.000000189312081e-003
	1.400000000000000e-002
	6.978525430516780e-003
	6.978525430517008e-003
	-2.147456948286164e-005
	-2.147456948288940e-005
	0.000000000000000e+000
	-1.400000000000000e-002
	-1.395705086103379e-002
10		1.500000000000000e-002
	3.784961161728569e+000
	0.000000000000000e+000
	-7.167209371762984e-001
	3.784961161728904e+000
	0.000000000000000e+000
	-1.500000000000000e+001
	1.500000000000000e+001
	0.000000000000000e+000
	7.476692558847722e-003
	2.330744135587659e-005
	-7.500000057494662e-003
	7.476692558847722e-003
	2.330744135584883e-005
	-7.500000057494623e-003
	1.500000000000000e-002
	7.476692558847397e-003
	7.476692558847620e-003
	-2.330744115208442e-005
	-2.330744115208445e-005
	0.000000000000000e+000
	-1.500000000000000e-002
	-1.495338511769502e-002
