Title: * E:\Eigene Dateien\Visual Studio Projects\git\ltspice2matlab\testdata\XVII\text\ac\ac_stepped.asc
Date: Thu Feb 21 17:00:55 2019
Plotname: Operating Point
Flags: real stepped
No. Variables: 23
No. Points:            1
Offset:   0.0000000000000000e+000
Command: Linear Technology Corporation LTspice XVII -- Alternate Solver
Variables:
	0	iq	param
	1	V(uc1)	voltage
	2	V(ue1)	voltage
	3	V(ue12)	voltage
	4	V(uc2)	voltage
	5	V(ue2)	voltage
	6	V(vee)	voltage
	7	V(vcc)	voltage
	8	V(ued)	voltage
	9	Ic(Q2)	device_current
	10	Ib(Q2)	device_current
	11	Ie(Q2)	device_current
	12	Ic(Q1)	device_current
	13	Ib(Q1)	device_current
	14	Ie(Q1)	device_current
	15	I(I1)	device_current
	16	I(R2)	device_current
	17	I(R1)	device_current
	18	I(E2)	device_current
	19	I(E1)	device_current
	20	I(V1)	device_current
	21	I(Ve)	device_current
	22	I(Vc)	device_current
Values:
0		5.000000000000000e-003
	1.126065760855964e+001
	0.000000000000000e+000
	-6.841541034902617e-001
	1.126065760855964e+001
	0.000000000000000e+000
	-1.500000000000000e+001
	1.500000000000000e+001
	0.000000000000000e+000
	2.492894927626909e-003
	7.105075210843318e-006
	-2.500001046852202e-003
	2.492894927626909e-003
	7.105075210843314e-006
	-2.500001046852202e-003
	5.000000000000000e-003
	2.492894927626908e-003
	2.492894927626909e-003
	-7.105072373091578e-006
	-7.105072373091582e-006
	0.000000000000000e+000
	-5.000000000000000e-003
	-4.985789855253817e-003
