Title: * E:\Temp\raw\ascii\dc\dc.asc
Date: Fri Aug 02 17:56:33 2013
Plotname: DC transfer characteristic
Flags: real forward
No. Variables: 23
No. Points:           11
Offset:   0.0000000000000000e+000
Command: Linear Technology Corporation LTspice IV
Variables:
	0	i1	current
	1	V(uc1)	voltage
	2	V(ue1)	voltage
	3	V(ue12)	voltage
	4	V(uc2)	voltage
	5	V(ue2)	voltage
	6	V(vee)	voltage
	7	V(vcc)	voltage
	8	V(ued)	voltage
	9	Ic(Q2)	device_current
	10	Ib(Q2)	device_current
	11	Ie(Q2)	device_current
	12	Ic(Q1)	device_current
	13	Ib(Q1)	device_current
	14	Ie(Q1)	device_current
	15	I(I1)	device_current
	16	I(R2)	device_current
	17	I(R1)	device_current
	18	I(E2)	device_current
	19	I(E1)	device_current
	20	I(V1)	device_current
	21	I(Ve)	device_current
	22	I(Vc)	device_current
Values:
0		5.000000000000000e-003
	1.126065760855976e+001
	0.000000000000000e+000
	-6.841541034902620e-001
	1.126065760855882e+001
	0.000000000000000e+000
	-1.500000000000000e+001
	1.500000000000000e+001
	0.000000000000000e+000
	2.492894927630589e-003
	7.105072371209854e-006
	-2.500000000000008e-003
	2.492894927630589e-003
	7.105072371216793e-006
	-2.500000000000001e-003
	5.000000000000000e-003
	2.492894927627453e-003
	2.492894927626824e-003
	-7.105072373087475e-006
	-7.105072373080545e-006
	0.000000000000000e+000
	-5.000000000000000e-003
	-4.985789855258687e-003
1		6.000000000000000e-003
	1.051281695088340e+001
	0.000000000000000e+000
	-6.892674964824249e-001
	1.051281695088493e+001
	0.000000000000000e+000
	-1.500000000000000e+001
	1.500000000000000e+001
	0.000000000000000e+000
	2.991455351494712e-003
	8.544648505892021e-006
	-3.000000000000024e-003
	2.991455351496535e-003
	8.544648505892021e-006
	-2.999999999999967e-003
	6.000000000000000e-003
	2.991455366076715e-003
	2.991455366077731e-003
	-8.544633922143934e-006
	-8.544633922143922e-006
	0.000000000000000e+000
	-6.000000000000000e-003
	-5.982910702989677e-003
2		7.000000000000000e-003
	9.765024901919844e+000
	0.000000000000000e+000
	-6.936587064169739e-001
	9.765024901919093e+000
	0.000000000000000e+000
	-1.500000000000000e+001
	1.500000000000000e+001
	0.000000000000000e+000
	3.489983310322626e-003
	1.001668967846085e-005
	-3.499999999999963e-003
	3.489983310322626e-003
	1.001668967848861e-005
	-3.500000000000015e-003
	7.000000000000000e-003
	3.489983398720605e-003
	3.489983398720104e-003
	-1.001660128025985e-005
	-1.001660128025986e-005
	0.000000000000000e+000
	-7.000000000000000e-003
	-6.979966620644126e-003
3		8.000000000000000e-003
	9.017286630608242e+000
	0.000000000000000e+000
	-6.975109482078666e-001
	9.017286630609535e+000
	0.000000000000000e+000
	-1.500000000000000e+001
	1.500000000000000e+001
	0.000000000000000e+000
	3.988475498441275e-003
	1.152450155831198e-005
	-3.999999999999996e-003
	3.988475498441275e-003
	1.152450155831198e-005
	-4.000000000000001e-003
	8.000000000000000e-003
	3.988475579593643e-003
	3.988475579594505e-003
	-1.152442040496943e-005
	-1.152442040495554e-005
	0.000000000000000e+000
	-8.000000000000000e-003
	-7.976950996882778e-003
4		9.000000000000001e-003
	8.269606373425869e+000
	0.000000000000000e+000
	-7.009624367772767e-001
	8.269606373425981e+000
	0.000000000000000e+000
	-1.500000000000000e+001
	1.500000000000000e+001
	0.000000000000000e+000
	4.486929018695943e-003
	1.307098130535784e-005
	-4.499999999999995e-003
	4.486929018695943e-003
	1.307098130534396e-005
	-4.499999999999992e-003
	9.000000000000001e-003
	4.486929084382679e-003
	4.486929084382754e-003
	-1.307091561776233e-005
	-1.307091561776234e-005
	0.000000000000000e+000
	-9.000000000000001e-003
	-8.973858037390727e-003
5		1.000000000000000e-002
	7.521988126571137e+000
	0.000000000000000e+000
	-7.040986629765733e-001
	7.521988126572134e+000
	0.000000000000000e+000
	-1.500000000000000e+001
	1.500000000000000e+001
	0.000000000000000e+000
	4.985341193297493e-003
	1.465880670338273e-005
	-5.000000000000016e-003
	4.985341193297493e-003
	1.465880670339661e-005
	-5.000000000000025e-003
	1.000000000000000e-002
	4.985341248951911e-003
	4.985341248952576e-003
	-1.465875104807628e-005
	-1.465875104802078e-005
	0.000000000000000e+000
	-1.000000000000000e-002
	-9.970682386593609e-003
6		1.100000000000000e-002
	6.774435747189836e+000
	0.000000000000000e+000
	-7.069803175673344e-001
	6.774435747189301e+000
	0.000000000000000e+000
	-1.500000000000000e+001
	1.500000000000000e+001
	0.000000000000000e+000
	5.483709454407934e-003
	1.629054559364887e-005
	-5.500000000000043e-003
	5.483709454407934e-003
	1.629054559364887e-005
	-5.500000000000034e-003
	1.100000000000000e-002
	5.483709501873799e-003
	5.483709501873443e-003
	-1.629049812702104e-005
	-1.629049812702104e-005
	0.000000000000000e+000
	-1.100000000000000e-002
	-1.096741890881451e-002
7		1.200000000000000e-002
	6.026953025990736e+000
	0.000000000000000e+000
	-7.096525800492247e-001
	6.026953025990240e+000
	0.000000000000000e+000
	-1.500000000000000e+001
	1.500000000000000e+001
	0.000000000000000e+000
	5.982031275364235e-003
	1.796872463697932e-005
	-5.999999999999983e-003
	5.982031275364235e-003
	1.796872463700707e-005
	-6.000000000000037e-003
	1.200000000000000e-002
	5.982031316006506e-003
	5.982031316006176e-003
	-1.796868399422665e-005
	-1.796868399428215e-005
	0.000000000000000e+000
	-1.200000000000000e-002
	-1.196406255072659e-002
8		1.300000000000001e-002
	5.279543761057053e+000
	0.000000000000000e+000
	-7.121498645865064e-001
	5.279543761057725e+000
	0.000000000000000e+000
	-1.500000000000000e+001
	1.500000000000000e+001
	0.000000000000000e+000
	6.480304124261954e-003
	1.969587573828869e-005
	-6.499999999999969e-003
	6.480304124261954e-003
	1.969587573826093e-005
	-6.499999999999962e-003
	1.300000000000001e-002
	6.480304159294851e-003
	6.480304159295298e-003
	-1.969584070521475e-005
	-1.969584070527029e-005
	0.000000000000000e+000
	-1.300000000000001e-002
	-1.296060824852271e-002
9		1.400000000000001e-002
	4.532211808704157e+000
	0.000000000000000e+000
	-7.144989769371997e-001
	4.532211808704424e+000
	0.000000000000000e+000
	-1.500000000000000e+001
	1.500000000000000e+001
	0.000000000000000e+000
	6.978525430458328e-003
	2.147456954277335e-005
	-7.000000000000044e-003
	6.978525430458328e-003
	2.147456954274560e-005
	-7.000000000000012e-003
	1.400000000000001e-002
	6.978525460863717e-003
	6.978525460863894e-003
	-2.147453913642214e-005
	-2.147453913642209e-005
	0.000000000000000e+000
	-1.400000000000001e-002
	-1.395705086091531e-002
10		1.500000000000000e-002
	3.784961121917519e+000
	0.000000000000000e+000
	-7.167212086914409e-001
	3.784961121917137e+000
	0.000000000000000e+000
	-1.500000000000000e+001
	1.500000000000000e+001
	0.000000000000000e+000
	7.476692558827674e-003
	2.330744117256587e-005
	-7.499999999999992e-003
	7.476692558827674e-003
	2.330744117251035e-005
	-7.499999999999943e-003
	1.500000000000000e-002
	7.476692585388575e-003
	7.476692585388320e-003
	-2.330741461144563e-005
	-2.330741461141787e-005
	0.000000000000000e+000
	-1.500000000000000e-002
	-1.495338511765473e-002
