Title: * E:\Temp\raw\ascii\dc\dc_stepped.asc
Date: Fri Aug 02 17:56:39 2013
Plotname: DC transfer characteristic
Flags: real forward stepped
No. Variables: 23
No. Points:           44
Offset:   0.0000000000000000e+000
Command: Linear Technology Corporation LTspice IV
Variables:
	0	i1	current
	1	V(uc1)	voltage
	2	V(ue1)	voltage
	3	V(ue12)	voltage
	4	V(uc2)	voltage
	5	V(ue2)	voltage
	6	V(vee)	voltage
	7	V(vcc)	voltage
	8	V(ued)	voltage
	9	Ic(Q2)	device_current
	10	Ib(Q2)	device_current
	11	Ie(Q2)	device_current
	12	Ic(Q1)	device_current
	13	Ib(Q1)	device_current
	14	Ie(Q1)	device_current
	15	I(I1)	device_current
	16	I(R2)	device_current
	17	I(R1)	device_current
	18	I(E2)	device_current
	19	I(E1)	device_current
	20	I(V1)	device_current
	21	I(Ve)	device_current
	22	I(Vc)	device_current
Values:
0		5.000000000000000e-003
	1.250699313390327e+001
	0.000000000000000e+000
	-6.837132942737624e-001
	1.250699313390278e+001
	0.000000000000000e+000
	-1.500000000000000e+001
	1.500000000000000e+001
	0.000000000000000e+000
	2.493006866102714e-003
	6.993133896455853e-006
	-2.499999999999988e-003
	2.493006866102714e-003
	6.993133896448914e-006
	-2.499999999999996e-003
	5.000000000000000e-003
	2.493006866097224e-003
	2.493006866096728e-003
	-6.993133900803612e-006
	-6.993133900796679e-006
	0.000000000000000e+000
	-5.000000000000000e-003
	-4.986013732202668e-003
1		6.000000000000000e-003
	1.200838057649314e+001
	0.000000000000000e+000
	-6.887315992384473e-001
	1.200838057649265e+001
	0.000000000000000e+000
	-1.500000000000000e+001
	1.500000000000000e+001
	0.000000000000000e+000
	2.991619410727721e-003
	8.380589269515991e-006
	-3.000000000000030e-003
	2.991619410727721e-003
	8.380589269543747e-006
	-2.999999999999980e-003
	6.000000000000000e-003
	2.991619423507352e-003
	2.991619423506863e-003
	-8.380576492391540e-006
	-8.380576492391528e-006
	0.000000000000000e+000
	-6.000000000000000e-003
	-5.983238821454242e-003
2		7.000000000000000e-003
	1.150978890672189e+001
	0.000000000000000e+000
	-6.930252906351866e-001
	1.150978890672104e+001
	0.000000000000000e+000
	-1.500000000000000e+001
	1.500000000000000e+001
	0.000000000000000e+000
	3.490211012635930e-003
	9.788987364205492e-006
	-3.500000000000008e-003
	3.490211012635930e-003
	9.788987364191614e-006
	-3.499999999999984e-003
	7.000000000000000e-003
	3.490211093278962e-003
	3.490211093278109e-003
	-9.788906719960982e-006
	-9.788906719974868e-006
	0.000000000000000e+000
	-7.000000000000000e-003
	-6.980422025269073e-003
3		8.000000000000000e-003
	1.101122074350645e+001
	0.000000000000000e+000
	-6.967774101964286e-001
	1.101122074350701e+001
	0.000000000000000e+000
	-1.500000000000000e+001
	1.500000000000000e+001
	0.000000000000000e+000
	3.988779181758497e-003
	1.122081824105948e-005
	-3.999999999999958e-003
	3.988779181756674e-003
	1.122081824107336e-005
	-3.999999999999982e-003
	8.000000000000000e-003
	3.988779256492986e-003
	3.988779256493554e-003
	-1.122074350545324e-005
	-1.122074350545321e-005
	0.000000000000000e+000
	-8.000000000000000e-003
	-7.977558363514029e-003
4		9.000000000000001e-003
	1.051267804224811e+001
	0.000000000000000e+000
	-7.001261764882684e-001
	1.051267804224871e+001
	0.000000000000000e+000
	-1.500000000000000e+001
	1.500000000000000e+001
	0.000000000000000e+000
	4.487321897059872e-003
	1.267810293889119e-005
	-4.499999999999961e-003
	4.487321897059872e-003
	1.267810293889119e-005
	-4.500000000000015e-003
	9.000000000000001e-003
	4.487321957751291e-003
	4.487321957751895e-003
	-1.267804224782921e-005
	-1.267804224782922e-005
	0.000000000000000e+000
	-9.000000000000001e-003
	-8.974643794119138e-003
5		1.000000000000000e-002
	1.001416252818598e+001
	0.000000000000000e+000
	-7.031570131401077e-001
	1.001416252818533e+001
	0.000000000000000e+000
	-1.500000000000000e+001
	1.500000000000000e+001
	0.000000000000000e+000
	4.985837420327412e-003
	1.416257967253370e-005
	-5.000000000000067e-003
	4.985837420327412e-003
	1.416257967253370e-005
	-5.000000000000013e-003
	1.000000000000000e-002
	4.985837471814671e-003
	4.985837471814024e-003
	-1.416252818548464e-005
	-1.416252818548463e-005
	0.000000000000000e+000
	-1.000000000000000e-002
	-9.971674840653456e-003
6		1.100000000000000e-002
	9.515675765657807e+000
	0.000000000000000e+000
	-7.059305297734765e-001
	9.515675765658175e+000
	0.000000000000000e+000
	-1.500000000000000e+001
	1.500000000000000e+001
	0.000000000000000e+000
	5.484324190404614e-003
	1.567580959322047e-005
	-5.500000000000015e-003
	5.484324190404614e-003
	1.567580959319271e-005
	-5.500000000000002e-003
	1.100000000000000e-002
	5.484324234341825e-003
	5.484324234342193e-003
	-1.567576565716010e-005
	-1.567576565718787e-005
	0.000000000000000e+000
	-1.100000000000000e-002
	-1.096864838080945e-002
7		1.200000000000000e-002
	9.017219203642600e+000
	0.000000000000000e+000
	-7.084918254243765e-001
	9.017219203642311e+000
	0.000000000000000e+000
	-1.500000000000000e+001
	1.500000000000000e+001
	0.000000000000000e+000
	5.982780758723232e-003
	1.721924127626510e-005
	-6.000000000000005e-003
	5.982780758723232e-003
	1.721924127626510e-005
	-5.999999999999977e-003
	1.200000000000000e-002
	5.982780796357689e-003
	5.982780796357399e-003
	-1.721920364076896e-005
	-1.721920364076897e-005
	0.000000000000000e+000
	-1.200000000000000e-002
	-1.196556151744524e-002
8		1.300000000000001e-002
	8.518794219875863e+000
	0.000000000000000e+000
	-7.108752316349117e-001
	8.518794219875186e+000
	0.000000000000000e+000
	-1.500000000000000e+001
	1.500000000000000e+001
	0.000000000000000e+000
	6.481205747663589e-003
	1.879425233550740e-005
	-6.500000000000014e-003
	6.481205747663589e-003
	1.879425233553515e-005
	-6.499999999999962e-003
	1.300000000000001e-002
	6.481205780124814e-003
	6.481205780124138e-003
	-1.879421987419753e-005
	-1.879421987422531e-005
	0.000000000000000e+000
	-1.300000000000001e-002
	-1.296241149532536e-002
9		1.400000000000001e-002
	8.020402149389776e+000
	0.000000000000000e+000
	-7.131074686485278e-001
	8.020402149389518e+000
	0.000000000000000e+000
	-1.500000000000000e+001
	1.500000000000000e+001
	0.000000000000000e+000
	6.979597822406606e-003
	2.040217759280032e-005
	-6.999999999999945e-003
	6.979597822406606e-003
	2.040217759282808e-005
	-6.999999999999910e-003
	1.400000000000001e-002
	6.979597850610482e-003
	6.979597850610224e-003
	-2.040214938841263e-005
	-2.040214938841265e-005
	0.000000000000000e+000
	-1.400000000000001e-002
	-1.395919564481103e-002
10		1.500000000000000e-002
	7.522044304285305e+000
	0.000000000000000e+000
	-7.152097394827520e-001
	7.522044304285014e+000
	0.000000000000000e+000
	-1.500000000000000e+001
	1.500000000000000e+001
	0.000000000000000e+000
	7.477955671035209e-003
	2.204432896412569e-005
	-7.499999999999975e-003
	7.477955671035209e-003
	2.204432896412569e-005
	-7.499999999999989e-003
	1.500000000000000e-002
	7.477955695714986e-003
	7.477955695714696e-003
	-2.204430428494589e-005
	-2.204430428494591e-005
	0.000000000000000e+000
	-1.500000000000000e-002
	-1.495591134207009e-002
11		5.000000000000000e-003
	1.126065760855976e+001
	0.000000000000000e+000
	-6.841541034902620e-001
	1.126065760855882e+001
	0.000000000000000e+000
	-1.500000000000000e+001
	1.500000000000000e+001
	0.000000000000000e+000
	2.492894927630589e-003
	7.105072371209854e-006
	-2.500000000000008e-003
	2.492894927630589e-003
	7.105072371216793e-006
	-2.500000000000001e-003
	5.000000000000000e-003
	2.492894927627453e-003
	2.492894927626824e-003
	-7.105072373087475e-006
	-7.105072373080545e-006
	0.000000000000000e+000
	-5.000000000000000e-003
	-4.985789855258687e-003
12		6.000000000000000e-003
	1.051281695088340e+001
	0.000000000000000e+000
	-6.892674964824249e-001
	1.051281695088493e+001
	0.000000000000000e+000
	-1.500000000000000e+001
	1.500000000000000e+001
	0.000000000000000e+000
	2.991455351494712e-003
	8.544648505892021e-006
	-3.000000000000024e-003
	2.991455351496535e-003
	8.544648505892021e-006
	-2.999999999999967e-003
	6.000000000000000e-003
	2.991455366076715e-003
	2.991455366077731e-003
	-8.544633922143934e-006
	-8.544633922143922e-006
	0.000000000000000e+000
	-6.000000000000000e-003
	-5.982910702989677e-003
13		7.000000000000000e-003
	9.765024901919844e+000
	0.000000000000000e+000
	-6.936587064169739e-001
	9.765024901919093e+000
	0.000000000000000e+000
	-1.500000000000000e+001
	1.500000000000000e+001
	0.000000000000000e+000
	3.489983310322626e-003
	1.001668967846085e-005
	-3.499999999999963e-003
	3.489983310322626e-003
	1.001668967848861e-005
	-3.500000000000015e-003
	7.000000000000000e-003
	3.489983398720605e-003
	3.489983398720104e-003
	-1.001660128025985e-005
	-1.001660128025986e-005
	0.000000000000000e+000
	-7.000000000000000e-003
	-6.979966620644126e-003
14		8.000000000000000e-003
	9.017286630608242e+000
	0.000000000000000e+000
	-6.975109482078666e-001
	9.017286630609535e+000
	0.000000000000000e+000
	-1.500000000000000e+001
	1.500000000000000e+001
	0.000000000000000e+000
	3.988475498441275e-003
	1.152450155831198e-005
	-3.999999999999996e-003
	3.988475498441275e-003
	1.152450155831198e-005
	-4.000000000000001e-003
	8.000000000000000e-003
	3.988475579593643e-003
	3.988475579594505e-003
	-1.152442040496943e-005
	-1.152442040495554e-005
	0.000000000000000e+000
	-8.000000000000000e-003
	-7.976950996882778e-003
15		9.000000000000001e-003
	8.269606373425869e+000
	0.000000000000000e+000
	-7.009624367772767e-001
	8.269606373425981e+000
	0.000000000000000e+000
	-1.500000000000000e+001
	1.500000000000000e+001
	0.000000000000000e+000
	4.486929018695943e-003
	1.307098130535784e-005
	-4.499999999999995e-003
	4.486929018695943e-003
	1.307098130534396e-005
	-4.499999999999992e-003
	9.000000000000001e-003
	4.486929084382679e-003
	4.486929084382754e-003
	-1.307091561776233e-005
	-1.307091561776234e-005
	0.000000000000000e+000
	-9.000000000000001e-003
	-8.973858037390727e-003
16		1.000000000000000e-002
	7.521988126571137e+000
	0.000000000000000e+000
	-7.040986629765733e-001
	7.521988126572134e+000
	0.000000000000000e+000
	-1.500000000000000e+001
	1.500000000000000e+001
	0.000000000000000e+000
	4.985341193297493e-003
	1.465880670338273e-005
	-5.000000000000016e-003
	4.985341193297493e-003
	1.465880670339661e-005
	-5.000000000000025e-003
	1.000000000000000e-002
	4.985341248951911e-003
	4.985341248952576e-003
	-1.465875104807628e-005
	-1.465875104802078e-005
	0.000000000000000e+000
	-1.000000000000000e-002
	-9.970682386593609e-003
17		1.100000000000000e-002
	6.774435747189836e+000
	0.000000000000000e+000
	-7.069803175673344e-001
	6.774435747189301e+000
	0.000000000000000e+000
	-1.500000000000000e+001
	1.500000000000000e+001
	0.000000000000000e+000
	5.483709454407934e-003
	1.629054559364887e-005
	-5.500000000000043e-003
	5.483709454407934e-003
	1.629054559364887e-005
	-5.500000000000034e-003
	1.100000000000000e-002
	5.483709501873799e-003
	5.483709501873443e-003
	-1.629049812702104e-005
	-1.629049812702104e-005
	0.000000000000000e+000
	-1.100000000000000e-002
	-1.096741890881451e-002
18		1.200000000000000e-002
	6.026953025990736e+000
	0.000000000000000e+000
	-7.096525800492247e-001
	6.026953025990240e+000
	0.000000000000000e+000
	-1.500000000000000e+001
	1.500000000000000e+001
	0.000000000000000e+000
	5.982031275364235e-003
	1.796872463697932e-005
	-5.999999999999983e-003
	5.982031275364235e-003
	1.796872463700707e-005
	-6.000000000000037e-003
	1.200000000000000e-002
	5.982031316006506e-003
	5.982031316006176e-003
	-1.796868399422665e-005
	-1.796868399428215e-005
	0.000000000000000e+000
	-1.200000000000000e-002
	-1.196406255072659e-002
19		1.300000000000001e-002
	5.279543761057053e+000
	0.000000000000000e+000
	-7.121498645865064e-001
	5.279543761057725e+000
	0.000000000000000e+000
	-1.500000000000000e+001
	1.500000000000000e+001
	0.000000000000000e+000
	6.480304124261954e-003
	1.969587573828869e-005
	-6.499999999999969e-003
	6.480304124261954e-003
	1.969587573826093e-005
	-6.499999999999962e-003
	1.300000000000001e-002
	6.480304159294851e-003
	6.480304159295298e-003
	-1.969584070521475e-005
	-1.969584070527029e-005
	0.000000000000000e+000
	-1.300000000000001e-002
	-1.296060824852271e-002
20		1.400000000000001e-002
	4.532211808704157e+000
	0.000000000000000e+000
	-7.144989769371997e-001
	4.532211808704424e+000
	0.000000000000000e+000
	-1.500000000000000e+001
	1.500000000000000e+001
	0.000000000000000e+000
	6.978525430458328e-003
	2.147456954277335e-005
	-7.000000000000044e-003
	6.978525430458328e-003
	2.147456954274560e-005
	-7.000000000000012e-003
	1.400000000000001e-002
	6.978525460863717e-003
	6.978525460863894e-003
	-2.147453913642214e-005
	-2.147453913642209e-005
	0.000000000000000e+000
	-1.400000000000001e-002
	-1.395705086091531e-002
21		1.500000000000000e-002
	3.784961121917519e+000
	0.000000000000000e+000
	-7.167212086914409e-001
	3.784961121917137e+000
	0.000000000000000e+000
	-1.500000000000000e+001
	1.500000000000000e+001
	0.000000000000000e+000
	7.476692558827674e-003
	2.330744117256587e-005
	-7.499999999999992e-003
	7.476692558827674e-003
	2.330744117251035e-005
	-7.499999999999943e-003
	1.500000000000000e-002
	7.476692585388575e-003
	7.476692585388320e-003
	-2.330741461144563e-005
	-2.330741461141787e-005
	0.000000000000000e+000
	-1.500000000000000e-002
	-1.495338511765473e-002
22		5.000000000000000e-003
	1.051291329277670e+001
	0.000000000000000e+000
	-6.844222157349649e-001
	1.051291329277565e+001
	0.000000000000000e+000
	-1.500000000000000e+001
	1.500000000000000e+001
	0.000000000000000e+000
	2.492825948457816e-003
	7.174051542768118e-006
	-2.499999999999998e-003
	2.492825948457816e-003
	7.174051542768118e-006
	-2.500000000000006e-003
	5.000000000000000e-003
	2.492825948457971e-003
	2.492825948457390e-003
	-7.174051542926222e-006
	-7.174051542926214e-006
	0.000000000000000e+000
	-5.000000000000000e-003
	-4.985651896915493e-003
23		6.000000000000000e-003
	9.615563378029757e+000
	0.000000000000000e+000
	-6.895944033060233e-001
	9.615563378030476e+000
	0.000000000000000e+000
	-1.500000000000000e+001
	1.500000000000000e+001
	0.000000000000000e+000
	2.991353663159225e-003
	8.646336841596992e-006
	-2.999999999999968e-003
	2.991353663159225e-003
	8.646336841596992e-006
	-3.000000000000020e-003
	6.000000000000000e-003
	2.991353678871958e-003
	2.991353678872357e-003
	-8.646321129107741e-006
	-8.646321129107746e-006
	0.000000000000000e+000
	-6.000000000000000e-003
	-5.982707326319210e-003
24		7.000000000000000e-003
	8.718285445858040e+000
	0.000000000000000e+000
	-6.940462660326131e-001
	8.718285445858568e+000
	0.000000000000000e+000
	-1.500000000000000e+001
	1.500000000000000e+001
	0.000000000000000e+000
	3.489841325743202e-003
	1.015867425763645e-005
	-3.499999999999979e-003
	3.489841325743202e-003
	1.015867425765033e-005
	-3.500000000000067e-003
	7.000000000000000e-003
	3.489841418967462e-003
	3.489841418967756e-003
	-1.015858103243584e-005
	-1.015858103242196e-005
	0.000000000000000e+000
	-7.000000000000000e-003
	-6.979682651487490e-003
25		8.000000000000000e-003
	7.821086909530806e+000
	0.000000000000000e+000
	-6.979611680697699e-001
	7.821086909529944e+000
	0.000000000000000e+000
	-1.500000000000000e+001
	1.500000000000000e+001
	0.000000000000000e+000
	3.988284965140068e-003
	1.171503486059839e-005
	-4.000000000000005e-003
	3.988284965140068e-003
	1.171503486059839e-005
	-4.000000000000024e-003
	8.000000000000000e-003
	3.988285050261142e-003
	3.988285050260664e-003
	-1.171494974063847e-005
	-1.171494974065235e-005
	0.000000000000000e+000
	-8.000000000000000e-003
	-7.976569930280692e-003
26		9.000000000000001e-003
	6.923974152879220e+000
	0.000000000000000e+000
	-7.014773457086935e-001
	6.923974152879836e+000
	0.000000000000000e+000
	-1.500000000000000e+001
	1.500000000000000e+001
	0.000000000000000e+000
	4.486680957430605e-003
	1.331904256981376e-005
	-4.500000000000014e-003
	4.486680957430605e-003
	1.331904256982764e-005
	-4.499999999999993e-003
	9.000000000000001e-003
	4.486681026177869e-003
	4.486681026178211e-003
	-1.331897382261395e-005
	-1.331897382260010e-005
	0.000000000000000e+000
	-9.000000000000001e-003
	-8.973361914862156e-003
27		1.000000000000000e-002
	6.026953397998478e+000
	0.000000000000000e+000
	-7.046803646045166e-001
	6.026953397998205e+000
	0.000000000000000e+000
	-1.500000000000000e+001
	1.500000000000000e+001
	0.000000000000000e+000
	4.985025831825503e-003
	1.497416817431011e-005
	-5.000000000000024e-003
	4.985025831825503e-003
	1.497416817426847e-005
	-5.000000000000002e-003
	1.000000000000000e-002
	4.985025890000997e-003
	4.985025890000844e-003
	-1.497410999959766e-005
	-1.497410999956990e-005
	0.000000000000000e+000
	-1.000000000000000e-002
	-9.970051663651275e-003
28		1.100000000000000e-002
	5.130030830839083e+000
	0.000000000000000e+000
	-7.076310024382347e-001
	5.130030830839192e+000
	0.000000000000000e+000
	-1.500000000000000e+001
	1.500000000000000e+001
	0.000000000000000e+000
	5.483316155527471e-003
	1.668384447366945e-005
	-5.499999999999958e-003
	5.483316155526561e-003
	1.668384447366945e-005
	-5.500000000000060e-003
	1.100000000000000e-002
	5.483316205089337e-003
	5.483316205089399e-003
	-1.668379491117817e-005
	-1.668379491117814e-005
	0.000000000000000e+000
	-1.100000000000000e-002
	-1.096663231105476e-002
29		1.200000000000000e-002
	4.233212698471357e+000
	0.000000000000000e+000
	-7.103745272664280e-001
	4.233212698471171e+000
	0.000000000000000e+000
	-1.500000000000000e+001
	1.500000000000000e+001
	0.000000000000000e+000
	5.981548458464338e-003
	1.845154153642762e-005
	-6.000000000000024e-003
	5.981548458464338e-003
	1.845154153639986e-005
	-5.999999999999976e-003
	1.200000000000000e-002
	5.981548500849350e-003
	5.981548500849246e-003
	-1.845149915127767e-005
	-1.845149915127766e-005
	0.000000000000000e+000
	-1.200000000000000e-002
	-1.196309691692836e-002
30		1.300000000000001e-002
	3.336505411112649e+000
	0.000000000000000e+000
	-7.129454456495571e-001
	3.336505411112675e+000
	0.000000000000000e+000
	-1.500000000000000e+001
	1.500000000000000e+001
	0.000000000000000e+000
	6.479719179573711e-003
	2.028082042691105e-005
	-6.499999999999992e-003
	6.479719179573255e-003
	2.028082042688329e-005
	-6.500000000000018e-003
	1.300000000000001e-002
	6.479719216048513e-003
	6.479719216048528e-003
	-2.028078395175521e-005
	-2.028078395178296e-005
	0.000000000000000e+000
	-1.300000000000001e-002
	-1.295943835914733e-002
31		1.400000000000001e-002
	2.439915617898115e+000
	0.000000000000000e+000
	-7.153706602803593e-001
	2.439915617898055e+000
	0.000000000000000e+000
	-1.500000000000000e+001
	1.500000000000000e+001
	0.000000000000000e+000
	6.977824625136411e-003
	2.217537486420241e-005
	-7.000000000000001e-003
	6.977824625135956e-003
	2.217537486423017e-005
	-7.000000000000014e-003
	1.400000000000001e-002
	6.977824656723302e-003
	6.977824656723269e-003
	-2.217534327680126e-005
	-2.217534327680123e-005
	0.000000000000000e+000
	-1.400000000000001e-002
	-1.395564925027253e-002
32		1.500000000000000e-002
	1.543450269383249e+000
	0.000000000000000e+000
	-7.176715645233116e-001
	1.543450269383371e+000
	0.000000000000000e+000
	-1.500000000000000e+001
	1.500000000000000e+001
	0.000000000000000e+000
	7.475860933942785e-003
	2.413906605721018e-005
	-7.499999999999999e-003
	7.475860933942785e-003
	2.413906605723793e-005
	-7.499999999999992e-003
	1.500000000000000e-002
